! Differential pair S-parameters
! Ports: 1=P+, 2=P-, 3=N+, 4=N-
# Hz S RI R 50
1.000000e+08 9.510565e-04 -3.090170e-04 4.755283e-02 -1.545085e-02 8.549998e-01 -2.778063e-01 4.755283e-02 -1.545085e-02 4.755283e-02 -1.545085e-02 9.510565e-04 -3.090170e-04 4.755283e-02 -1.545085e-02 8.549998e-01 -2.778063e-01 8.549998e-01 -2.778063e-01 4.755283e-02 -1.545085e-02 9.510565e-04 -3.090170e-04 4.755283e-02 -1.545085e-02 4.755283e-02 -1.545085e-02 8.549998e-01 -2.778063e-01 4.755283e-02 -1.545085e-02 9.510565e-04 -3.090170e-04
1.023293e+08 9.708695e-04 -3.233281e-04 4.743849e-02 -1.579841e-02 8.529219e-01 -2.840481e-01 4.743849e-02 -1.579841e-02 4.743849e-02 -1.579841e-02 9.708695e-04 -3.233281e-04 4.743849e-02 -1.579841e-02 8.529219e-01 -2.840481e-01 8.529219e-01 -2.840481e-01 4.743849e-02 -1.579841e-02 9.708695e-04 -3.233281e-04 4.743849e-02 -1.579841e-02 4.743849e-02 -1.579841e-02 8.529219e-01 -2.840481e-01 4.743849e-02 -1.579841e-02 9.708695e-04 -3.233281e-04
1.047129e+08 9.909786e-04 -3.382894e-04 4.731886e-02 -1.615319e-02 8.507485e-01 -2.904192e-01 4.731886e-02 -1.615319e-02 4.731886e-02 -1.615319e-02 9.909786e-04 -3.382894e-04 4.731886e-02 -1.615319e-02 8.507485e-01 -2.904192e-01 8.507485e-01 -2.904192e-01 4.731886e-02 -1.615319e-02 9.909786e-04 -3.382894e-04 4.731886e-02 -1.615319e-02 4.731886e-02 -1.615319e-02 8.507485e-01 -2.904192e-01 4.731886e-02 -1.615319e-02 9.909786e-04 -3.382894e-04
1.071519e+08 1.011379e-03 -3.539292e-04 4.719370e-02 -1.651530e-02 8.484751e-01 -2.969214e-01 4.719370e-02 -1.651530e-02 4.719370e-02 -1.651530e-02 1.011379e-03 -3.539292e-04 4.719370e-02 -1.651530e-02 8.484751e-01 -2.969214e-01 8.484751e-01 -2.969214e-01 4.719370e-02 -1.651530e-02 1.011379e-03 -3.539292e-04 4.719370e-02 -1.651530e-02 4.719370e-02 -1.651530e-02 8.484751e-01 -2.969214e-01 4.719370e-02 -1.651530e-02 1.011379e-03 -3.539292e-04
1.096478e+08 1.032066e-03 -3.702771e-04 4.706275e-02 -1.688484e-02 8.460974e-01 -3.035568e-01 4.706275e-02 -1.688484e-02 4.706275e-02 -1.688484e-02 1.032066e-03 -3.702771e-04 4.706275e-02 -1.688484e-02 8.460974e-01 -3.035568e-01 8.460974e-01 -3.035568e-01 4.706275e-02 -1.688484e-02 1.032066e-03 -3.702771e-04 4.706275e-02 -1.688484e-02 4.706275e-02 -1.688484e-02 8.460974e-01 -3.035568e-01 4.706275e-02 -1.688484e-02 1.032066e-03 -3.702771e-04
1.122018e+08 1.053031e-03 -3.873635e-04 4.692576e-02 -1.726191e-02 8.436106e-01 -3.103269e-01 4.692576e-02 -1.726191e-02 4.692576e-02 -1.726191e-02 1.053031e-03 -3.873635e-04 4.692576e-02 -1.726191e-02 8.436106e-01 -3.103269e-01 8.436106e-01 -3.103269e-01 4.692576e-02 -1.726191e-02 1.053031e-03 -3.873635e-04 4.692576e-02 -1.726191e-02 4.692576e-02 -1.726191e-02 8.436106e-01 -3.103269e-01 4.692576e-02 -1.726191e-02 1.053031e-03 -3.873635e-04
1.148154e+08 1.074269e-03 -4.052204e-04 4.678245e-02 -1.764661e-02 8.410097e-01 -3.172337e-01 4.678245e-02 -1.764661e-02 4.678245e-02 -1.764661e-02 1.074269e-03 -4.052204e-04 4.678245e-02 -1.764661e-02 8.410097e-01 -3.172337e-01 8.410097e-01 -3.172337e-01 4.678245e-02 -1.764661e-02 1.074269e-03 -4.052204e-04 4.678245e-02 -1.764661e-02 4.678245e-02 -1.764661e-02 8.410097e-01 -3.172337e-01 4.678245e-02 -1.764661e-02 1.074269e-03 -4.052204e-04
1.174898e+08 1.095769e-03 -4.238805e-04 4.663253e-02 -1.803904e-02 8.382898e-01 -3.242788e-01 4.663253e-02 -1.803904e-02 4.663253e-02 -1.803904e-02 1.095769e-03 -4.238805e-04 4.663253e-02 -1.803904e-02 8.382898e-01 -3.242788e-01 8.382898e-01 -3.242788e-01 4.663253e-02 -1.803904e-02 1.095769e-03 -4.238805e-04 4.663253e-02 -1.803904e-02 4.663253e-02 -1.803904e-02 8.382898e-01 -3.242788e-01 4.663253e-02 -1.803904e-02 1.095769e-03 -4.238805e-04
1.202264e+08 1.117522e-03 -4.433782e-04 4.647572e-02 -1.843929e-02 8.354454e-01 -3.314639e-01 4.647572e-02 -1.843929e-02 4.647572e-02 -1.843929e-02 1.117522e-03 -4.433782e-04 4.647572e-02 -1.843929e-02 8.354454e-01 -3.314639e-01 8.354454e-01 -3.314639e-01 4.647572e-02 -1.843929e-02 1.117522e-03 -4.433782e-04 4.647572e-02 -1.843929e-02 4.647572e-02 -1.843929e-02 8.354454e-01 -3.314639e-01 4.647572e-02 -1.843929e-02 1.117522e-03 -4.433782e-04
1.230269e+08 1.139517e-03 -4.637489e-04 4.631170e-02 -1.884746e-02 8.324710e-01 -3.387905e-01 4.631170e-02 -1.884746e-02 4.631170e-02 -1.884746e-02 1.139517e-03 -4.637489e-04 4.631170e-02 -1.884746e-02 8.324710e-01 -3.387905e-01 8.324710e-01 -3.387905e-01 4.631170e-02 -1.884746e-02 1.139517e-03 -4.637489e-04 4.631170e-02 -1.884746e-02 4.631170e-02 -1.884746e-02 8.324710e-01 -3.387905e-01 4.631170e-02 -1.884746e-02 1.139517e-03 -4.637489e-04
1.258925e+08 1.161740e-03 -4.850293e-04 4.614014e-02 -1.926362e-02 8.293608e-01 -3.462602e-01 4.614014e-02 -1.926362e-02 4.614014e-02 -1.926362e-02 1.161740e-03 -4.850293e-04 4.614014e-02 -1.926362e-02 8.293608e-01 -3.462602e-01 8.293608e-01 -3.462602e-01 4.614014e-02 -1.926362e-02 1.161740e-03 -4.850293e-04 4.614014e-02 -1.926362e-02 4.614014e-02 -1.926362e-02 8.293608e-01 -3.462602e-01 4.614014e-02 -1.926362e-02 1.161740e-03 -4.850293e-04
1.288250e+08 1.184178e-03 -5.072577e-04 4.596072e-02 -1.968786e-02 8.261088e-01 -3.538743e-01 4.596072e-02 -1.968786e-02 4.596072e-02 -1.968786e-02 1.184178e-03 -5.072577e-04 4.596072e-02 -1.968786e-02 8.261088e-01 -3.538743e-01 8.261088e-01 -3.538743e-01 4.596072e-02 -1.968786e-02 1.184178e-03 -5.072577e-04 4.596072e-02 -1.968786e-02 4.596072e-02 -1.968786e-02 8.261088e-01 -3.538743e-01 4.596072e-02 -1.968786e-02 1.184178e-03 -5.072577e-04
1.318257e+08 1.206814e-03 -5.304733e-04 4.577308e-02 -2.012026e-02 8.227087e-01 -3.616341e-01 4.577308e-02 -2.012026e-02 4.577308e-02 -2.012026e-02 1.206814e-03 -5.304733e-04 4.577308e-02 -2.012026e-02 8.227087e-01 -3.616341e-01 8.227087e-01 -3.616341e-01 4.577308e-02 -2.012026e-02 1.206814e-03 -5.304733e-04 4.577308e-02 -2.012026e-02 4.577308e-02 -2.012026e-02 8.227087e-01 -3.616341e-01 4.577308e-02 -2.012026e-02 1.206814e-03 -5.304733e-04
1.348963e+08 1.229630e-03 -5.547170e-04 4.557687e-02 -2.056087e-02 8.191539e-01 -3.695409e-01 4.557687e-02 -2.056087e-02 4.557687e-02 -2.056087e-02 1.229630e-03 -5.547170e-04 4.557687e-02 -2.056087e-02 8.191539e-01 -3.695409e-01 8.191539e-01 -3.695409e-01 4.557687e-02 -2.056087e-02 1.229630e-03 -5.547170e-04 4.557687e-02 -2.056087e-02 4.557687e-02 -2.056087e-02 8.191539e-01 -3.695409e-01 4.557687e-02 -2.056087e-02 1.229630e-03 -5.547170e-04
1.380384e+08 1.252607e-03 -5.800309e-04 4.537169e-02 -2.100976e-02 8.154377e-01 -3.775957e-01 4.537169e-02 -2.100976e-02 4.537169e-02 -2.100976e-02 1.252607e-03 -5.800309e-04 4.537169e-02 -2.100976e-02 8.154377e-01 -3.775957e-01 8.154377e-01 -3.775957e-01 4.537169e-02 -2.100976e-02 1.252607e-03 -5.800309e-04 4.537169e-02 -2.100976e-02 4.537169e-02 -2.100976e-02 8.154377e-01 -3.775957e-01 4.537169e-02 -2.100976e-02 1.252607e-03 -5.800309e-04
1.412538e+08 1.275723e-03 -6.064587e-04 4.515715e-02 -2.146699e-02 8.115530e-01 -3.857995e-01 4.515715e-02 -2.146699e-02 4.515715e-02 -2.146699e-02 1.275723e-03 -6.064587e-04 4.515715e-02 -2.146699e-02 8.115530e-01 -3.857995e-01 8.115530e-01 -3.857995e-01 4.515715e-02 -2.146699e-02 1.275723e-03 -6.064587e-04 4.515715e-02 -2.146699e-02 4.515715e-02 -2.146699e-02 8.115530e-01 -3.857995e-01 4.515715e-02 -2.146699e-02 1.275723e-03 -6.064587e-04
1.445440e+08 1.298954e-03 -6.340453e-04 4.493285e-02 -2.193261e-02 8.074923e-01 -3.941529e-01 4.493285e-02 -2.193261e-02 4.493285e-02 -2.193261e-02 1.298954e-03 -6.340453e-04 4.493285e-02 -2.193261e-02 8.074923e-01 -3.941529e-01 8.074923e-01 -3.941529e-01 4.493285e-02 -2.193261e-02 1.298954e-03 -6.340453e-04 4.493285e-02 -2.193261e-02 4.493285e-02 -2.193261e-02 8.074923e-01 -3.941529e-01 4.493285e-02 -2.193261e-02 1.298954e-03 -6.340453e-04
1.479108e+08 1.322274e-03 -6.628370e-04 4.469835e-02 -2.240664e-02 8.032480e-01 -4.026567e-01 4.469835e-02 -2.240664e-02 4.469835e-02 -2.240664e-02 1.322274e-03 -6.628370e-04 4.469835e-02 -2.240664e-02 8.032480e-01 -4.026567e-01 8.032480e-01 -4.026567e-01 4.469835e-02 -2.240664e-02 1.322274e-03 -6.628370e-04 4.469835e-02 -2.240664e-02 4.469835e-02 -2.240664e-02 8.032480e-01 -4.026567e-01 4.469835e-02 -2.240664e-02 1.322274e-03 -6.628370e-04
1.513561e+08 1.345653e-03 -6.928817e-04 4.445321e-02 -2.288912e-02 7.988122e-01 -4.113113e-01 4.445321e-02 -2.288912e-02 4.445321e-02 -2.288912e-02 1.345653e-03 -6.928817e-04 4.445321e-02 -2.288912e-02 7.988122e-01 -4.113113e-01 7.988122e-01 -4.113113e-01 4.445321e-02 -2.288912e-02 1.345653e-03 -6.928817e-04 4.445321e-02 -2.288912e-02 4.445321e-02 -2.288912e-02 7.988122e-01 -4.113113e-01 4.445321e-02 -2.288912e-02 1.345653e-03 -6.928817e-04
1.548817e+08 1.369060e-03 -7.242285e-04 4.419698e-02 -2.338006e-02 7.941765e-01 -4.201169e-01 4.419698e-02 -2.338006e-02 4.419698e-02 -2.338006e-02 1.369060e-03 -7.242285e-04 4.419698e-02 -2.338006e-02 7.941765e-01 -4.201169e-01 7.941765e-01 -4.201169e-01 4.419698e-02 -2.338006e-02 1.369060e-03 -7.242285e-04 4.419698e-02 -2.338006e-02 4.419698e-02 -2.338006e-02 7.941765e-01 -4.201169e-01 4.419698e-02 -2.338006e-02 1.369060e-03 -7.242285e-04
1.584893e+08 1.392460e-03 -7.569281e-04 4.392916e-02 -2.387947e-02 7.893324e-01 -4.290735e-01 4.392916e-02 -2.387947e-02 4.392916e-02 -2.387947e-02 1.392460e-03 -7.569281e-04 4.392916e-02 -2.387947e-02 7.893324e-01 -4.290735e-01 7.893324e-01 -4.290735e-01 4.392916e-02 -2.387947e-02 1.392460e-03 -7.569281e-04 4.392916e-02 -2.387947e-02 4.392916e-02 -2.387947e-02 7.893324e-01 -4.290735e-01 4.392916e-02 -2.387947e-02 1.392460e-03 -7.569281e-04
1.621810e+08 1.415816e-03 -7.910324e-04 4.364926e-02 -2.438733e-02 7.842709e-01 -4.381809e-01 4.364926e-02 -2.438733e-02 4.364926e-02 -2.438733e-02 1.415816e-03 -7.910324e-04 4.364926e-02 -2.438733e-02 7.842709e-01 -4.381809e-01 7.842709e-01 -4.381809e-01 4.364926e-02 -2.438733e-02 1.415816e-03 -7.910324e-04 4.364926e-02 -2.438733e-02 4.364926e-02 -2.438733e-02 7.842709e-01 -4.381809e-01 4.364926e-02 -2.438733e-02 1.415816e-03 -7.910324e-04
1.659587e+08 1.439086e-03 -8.265947e-04 4.335677e-02 -2.490363e-02 7.789827e-01 -4.474387e-01 4.335677e-02 -2.490363e-02 4.335677e-02 -2.490363e-02 1.439086e-03 -8.265947e-04 4.335677e-02 -2.490363e-02 7.789827e-01 -4.474387e-01 7.789827e-01 -4.474387e-01 4.335677e-02 -2.490363e-02 1.439086e-03 -8.265947e-04 4.335677e-02 -2.490363e-02 4.335677e-02 -2.490363e-02 7.789827e-01 -4.474387e-01 4.335677e-02 -2.490363e-02 1.439086e-03 -8.265947e-04
1.698244e+08 1.462226e-03 -8.636697e-04 4.305114e-02 -2.542832e-02 7.734583e-01 -4.568461e-01 4.305114e-02 -2.542832e-02 4.305114e-02 -2.542832e-02 1.462226e-03 -8.636697e-04 4.305114e-02 -2.542832e-02 7.734583e-01 -4.568461e-01 7.734583e-01 -4.568461e-01 4.305114e-02 -2.542832e-02 1.462226e-03 -8.636697e-04 4.305114e-02 -2.542832e-02 4.305114e-02 -2.542832e-02 7.734583e-01 -4.568461e-01 4.305114e-02 -2.542832e-02 1.462226e-03 -8.636697e-04
1.737801e+08 1.485188e-03 -9.023131e-04 4.273182e-02 -2.596135e-02 7.676875e-01 -4.664020e-01 4.273182e-02 -2.596135e-02 4.273182e-02 -2.596135e-02 1.485188e-03 -9.023131e-04 4.273182e-02 -2.596135e-02 7.676875e-01 -4.664020e-01 7.676875e-01 -4.664020e-01 4.273182e-02 -2.596135e-02 1.485188e-03 -9.023131e-04 4.273182e-02 -2.596135e-02 4.273182e-02 -2.596135e-02 7.676875e-01 -4.664020e-01 4.273182e-02 -2.596135e-02 1.485188e-03 -9.023131e-04
1.778279e+08 1.507918e-03 -9.425822e-04 4.239823e-02 -2.650265e-02 7.616602e-01 -4.761050e-01 4.239823e-02 -2.650265e-02 4.239823e-02 -2.650265e-02 1.507918e-03 -9.425822e-04 4.239823e-02 -2.650265e-02 7.616602e-01 -4.761050e-01 7.616602e-01 -4.761050e-01 4.239823e-02 -2.650265e-02 1.507918e-03 -9.425822e-04 4.239823e-02 -2.650265e-02 4.239823e-02 -2.650265e-02 7.616602e-01 -4.761050e-01 4.239823e-02 -2.650265e-02 1.507918e-03 -9.425822e-04
1.819701e+08 1.530360e-03 -9.845350e-04 4.204977e-02 -2.705211e-02 7.553655e-01 -4.859535e-01 4.204977e-02 -2.705211e-02 4.204977e-02 -2.705211e-02 1.530360e-03 -9.845350e-04 4.204977e-02 -2.705211e-02 7.553655e-01 -4.859535e-01 7.553655e-01 -4.859535e-01 4.204977e-02 -2.705211e-02 1.530360e-03 -9.845350e-04 4.204977e-02 -2.705211e-02 4.204977e-02 -2.705211e-02 7.553655e-01 -4.859535e-01 4.204977e-02 -2.705211e-02 1.530360e-03 -9.845350e-04
1.862087e+08 1.552453e-03 -1.028231e-03 4.168583e-02 -2.760963e-02 7.487924e-01 -4.959452e-01 4.168583e-02 -2.760963e-02 4.168583e-02 -2.760963e-02 1.552453e-03 -1.028231e-03 4.168583e-02 -2.760963e-02 7.487924e-01 -4.959452e-01 7.487924e-01 -4.959452e-01 4.168583e-02 -2.760963e-02 1.552453e-03 -1.028231e-03 4.168583e-02 -2.760963e-02 4.168583e-02 -2.760963e-02 7.487924e-01 -4.959452e-01 4.168583e-02 -2.760963e-02 1.552453e-03 -1.028231e-03
1.905461e+08 1.574130e-03 -1.073730e-03 4.130575e-02 -2.817507e-02 7.419294e-01 -5.060776e-01 4.130575e-02 -2.817507e-02 4.130575e-02 -2.817507e-02 1.574130e-03 -1.073730e-03 4.130575e-02 -2.817507e-02 7.419294e-01 -5.060776e-01 7.419294e-01 -5.060776e-01 4.130575e-02 -2.817507e-02 1.574130e-03 -1.073730e-03 4.130575e-02 -2.817507e-02 4.130575e-02 -2.817507e-02 7.419294e-01 -5.060776e-01 4.130575e-02 -2.817507e-02 1.574130e-03 -1.073730e-03
1.949845e+08 1.595320e-03 -1.121093e-03 4.090889e-02 -2.874827e-02 7.347647e-01 -5.163477e-01 4.090889e-02 -2.874827e-02 4.090889e-02 -2.874827e-02 1.595320e-03 -1.121093e-03 4.090889e-02 -2.874827e-02 7.347647e-01 -5.163477e-01 7.347647e-01 -5.163477e-01 4.090889e-02 -2.874827e-02 1.595320e-03 -1.121093e-03 4.090889e-02 -2.874827e-02 4.090889e-02 -2.874827e-02 7.347647e-01 -5.163477e-01 4.090889e-02 -2.874827e-02 1.595320e-03 -1.121093e-03
1.995262e+08 1.615945e-03 -1.170382e-03 4.049455e-02 -2.932902e-02 7.272859e-01 -5.267520e-01 4.049455e-02 -2.932902e-02 4.049455e-02 -2.932902e-02 1.615945e-03 -1.170382e-03 4.049455e-02 -2.932902e-02 7.272859e-01 -5.267520e-01 7.272859e-01 -5.267520e-01 4.049455e-02 -2.932902e-02 1.615945e-03 -1.170382e-03 4.049455e-02 -2.932902e-02 4.049455e-02 -2.932902e-02 7.272859e-01 -5.267520e-01 4.049455e-02 -2.932902e-02 1.615945e-03 -1.170382e-03
2.041738e+08 1.635923e-03 -1.221659e-03 4.006202e-02 -2.991713e-02 7.194805e-01 -5.372866e-01 4.006202e-02 -2.991713e-02 4.006202e-02 -2.991713e-02 1.635923e-03 -1.221659e-03 4.006202e-02 -2.991713e-02 7.194805e-01 -5.372866e-01 7.194805e-01 -5.372866e-01 4.006202e-02 -2.991713e-02 1.635923e-03 -1.221659e-03 4.006202e-02 -2.991713e-02 4.006202e-02 -2.991713e-02 7.194805e-01 -5.372866e-01 4.006202e-02 -2.991713e-02 1.635923e-03 -1.221659e-03
2.089296e+08 1.655165e-03 -1.274986e-03 3.961058e-02 -3.051233e-02 7.113353e-01 -5.479469e-01 3.961058e-02 -3.051233e-02 3.961058e-02 -3.051233e-02 1.655165e-03 -1.274986e-03 3.961058e-02 -3.051233e-02 7.113353e-01 -5.479469e-01 7.113353e-01 -5.479469e-01 3.961058e-02 -3.051233e-02 1.655165e-03 -1.274986e-03 3.961058e-02 -3.051233e-02 3.961058e-02 -3.051233e-02 7.113353e-01 -5.479469e-01 3.961058e-02 -3.051233e-02 1.655165e-03 -1.274986e-03
2.137962e+08 1.673574e-03 -1.330425e-03 3.913947e-02 -3.111434e-02 7.028369e-01 -5.587276e-01 3.913947e-02 -3.111434e-02 3.913947e-02 -3.111434e-02 1.673574e-03 -1.330425e-03 3.913947e-02 -3.111434e-02 7.028369e-01 -5.587276e-01 7.028369e-01 -5.587276e-01 3.913947e-02 -3.111434e-02 1.673574e-03 -1.330425e-03 3.913947e-02 -3.111434e-02 3.913947e-02 -3.111434e-02 7.028369e-01 -5.587276e-01 3.913947e-02 -3.111434e-02 1.673574e-03 -1.330425e-03
2.187762e+08 1.691049e-03 -1.388040e-03 3.864792e-02 -3.172284e-02 6.939714e-01 -5.696231e-01 3.864792e-02 -3.172284e-02 3.864792e-02 -3.172284e-02 1.691049e-03 -1.388040e-03 3.864792e-02 -3.172284e-02 6.939714e-01 -5.696231e-01 6.939714e-01 -5.696231e-01 3.864792e-02 -3.172284e-02 1.691049e-03 -1.388040e-03 3.864792e-02 -3.172284e-02 3.864792e-02 -3.172284e-02 6.939714e-01 -5.696231e-01 3.864792e-02 -3.172284e-02 1.691049e-03 -1.388040e-03
2.238721e+08 1.707478e-03 -1.447892e-03 3.813512e-02 -3.233748e-02 6.847247e-01 -5.806267e-01 3.813512e-02 -3.233748e-02 3.813512e-02 -3.233748e-02 1.707478e-03 -1.447892e-03 3.813512e-02 -3.233748e-02 6.847247e-01 -5.806267e-01 6.847247e-01 -5.806267e-01 3.813512e-02 -3.233748e-02 1.707478e-03 -1.447892e-03 3.813512e-02 -3.233748e-02 3.813512e-02 -3.233748e-02 6.847247e-01 -5.806267e-01 3.813512e-02 -3.233748e-02 1.707478e-03 -1.447892e-03
2.290868e+08 1.722745e-03 -1.510042e-03 3.760026e-02 -3.295785e-02 6.750820e-01 -5.917313e-01 3.760026e-02 -3.295785e-02 3.760026e-02 -3.295785e-02 1.722745e-03 -1.510042e-03 3.760026e-02 -3.295785e-02 6.750820e-01 -5.917313e-01 6.750820e-01 -5.917313e-01 3.760026e-02 -3.295785e-02 1.722745e-03 -1.510042e-03 3.760026e-02 -3.295785e-02 3.760026e-02 -3.295785e-02 6.750820e-01 -5.917313e-01 3.760026e-02 -3.295785e-02 1.722745e-03 -1.510042e-03
2.344229e+08 1.736722e-03 -1.574549e-03 3.704250e-02 -3.358352e-02 6.650284e-01 -6.029288e-01 3.704250e-02 -3.358352e-02 3.704250e-02 -3.358352e-02 1.736722e-03 -1.574549e-03 3.704250e-02 -3.358352e-02 6.650284e-01 -6.029288e-01 6.650284e-01 -6.029288e-01 3.704250e-02 -3.358352e-02 1.736722e-03 -1.574549e-03 3.704250e-02 -3.358352e-02 3.704250e-02 -3.358352e-02 6.650284e-01 -6.029288e-01 3.704250e-02 -3.358352e-02 1.736722e-03 -1.574549e-03
2.398833e+08 1.749276e-03 -1.641473e-03 3.646098e-02 -3.421399e-02 6.545483e-01 -6.142103e-01 3.646098e-02 -3.421399e-02 3.646098e-02 -3.421399e-02 1.749276e-03 -1.641473e-03 3.646098e-02 -3.421399e-02 6.545483e-01 -6.142103e-01 6.545483e-01 -6.142103e-01 3.646098e-02 -3.421399e-02 1.749276e-03 -1.641473e-03 3.646098e-02 -3.421399e-02 3.646098e-02 -3.421399e-02 6.545483e-01 -6.142103e-01 3.646098e-02 -3.421399e-02 1.749276e-03 -1.641473e-03
2.454709e+08 1.760262e-03 -1.710869e-03 3.585480e-02 -3.484872e-02 6.436262e-01 -6.255661e-01 3.585480e-02 -3.484872e-02 3.585480e-02 -3.484872e-02 1.760262e-03 -1.710869e-03 3.585480e-02 -3.484872e-02 6.436262e-01 -6.255661e-01 6.436262e-01 -6.255661e-01 3.585480e-02 -3.484872e-02 1.760262e-03 -1.710869e-03 3.585480e-02 -3.484872e-02 3.585480e-02 -3.484872e-02 6.436262e-01 -6.255661e-01 3.585480e-02 -3.484872e-02 1.760262e-03 -1.710869e-03
2.511886e+08 1.769527e-03 -1.782792e-03 3.522307e-02 -3.548712e-02 6.322457e-01 -6.369853e-01 3.522307e-02 -3.548712e-02 3.522307e-02 -3.548712e-02 1.769527e-03 -1.782792e-03 3.522307e-02 -3.548712e-02 6.322457e-01 -6.369853e-01 6.322457e-01 -6.369853e-01 3.522307e-02 -3.548712e-02 1.769527e-03 -1.782792e-03 3.522307e-02 -3.548712e-02 3.522307e-02 -3.548712e-02 6.322457e-01 -6.369853e-01 3.522307e-02 -3.548712e-02 1.769527e-03 -1.782792e-03
2.570396e+08 1.776907e-03 -1.857292e-03 3.456486e-02 -3.612853e-02 6.203905e-01 -6.484563e-01 3.456486e-02 -3.612853e-02 3.456486e-02 -3.612853e-02 1.776907e-03 -1.857292e-03 3.456486e-02 -3.612853e-02 6.203905e-01 -6.484563e-01 6.203905e-01 -6.484563e-01 3.456486e-02 -3.612853e-02 1.776907e-03 -1.857292e-03 3.456486e-02 -3.612853e-02 3.456486e-02 -3.612853e-02 6.203905e-01 -6.484563e-01 3.456486e-02 -3.612853e-02 1.776907e-03 -1.857292e-03
2.630268e+08 1.782229e-03 -1.934417e-03 3.387923e-02 -3.677225e-02 6.080438e-01 -6.599660e-01 3.387923e-02 -3.677225e-02 3.387923e-02 -3.677225e-02 1.782229e-03 -1.934417e-03 3.387923e-02 -3.677225e-02 6.080438e-01 -6.599660e-01 6.080438e-01 -6.599660e-01 3.387923e-02 -3.677225e-02 1.782229e-03 -1.934417e-03 3.387923e-02 -3.677225e-02 3.387923e-02 -3.677225e-02 6.080438e-01 -6.599660e-01 3.387923e-02 -3.677225e-02 1.782229e-03 -1.934417e-03
2.691535e+08 1.785307e-03 -2.014209e-03 3.316522e-02 -3.741749e-02 5.951886e-01 -6.715005e-01 3.316522e-02 -3.741749e-02 3.316522e-02 -3.741749e-02 1.785307e-03 -2.014209e-03 3.316522e-02 -3.741749e-02 5.951886e-01 -6.715005e-01 5.951886e-01 -6.715005e-01 3.316522e-02 -3.741749e-02 1.785307e-03 -2.014209e-03 3.316522e-02 -3.741749e-02 3.316522e-02 -3.741749e-02 5.951886e-01 -6.715005e-01 3.316522e-02 -3.741749e-02 1.785307e-03 -2.014209e-03
