! 50 Ohm transmission line S-parameters
! Generated by TraceKit test data generator
# Hz S RI R 50
1.000000e+08 8.090170e-04 -5.877853e-04 9.030282e-01 -2.934116e-01 9.030282e-01 -2.934116e-01 8.090170e-04 -5.877853e-04
1.023293e+08 8.189702e-04 -6.135278e-04 9.008459e-01 -3.000081e-01 9.008459e-01 -3.000081e-01 8.189702e-04 -6.135278e-04
1.047129e+08 8.285504e-04 -6.402987e-04 8.985628e-01 -3.067415e-01 8.985628e-01 -3.067415e-01 8.285504e-04 -6.402987e-04
1.071519e+08 8.377094e-04 -6.681291e-04 8.961745e-01 -3.136137e-01 8.961745e-01 -3.136137e-01 8.377094e-04 -6.681291e-04
1.096478e+08 8.463955e-04 -6.970503e-04 8.936762e-01 -3.206267e-01 8.936762e-01 -3.206267e-01 8.463955e-04 -6.970503e-04
1.122018e+08 8.545531e-04 -7.270931e-04 8.910629e-01 -3.277825e-01 8.910629e-01 -3.277825e-01 8.545531e-04 -7.270931e-04
1.148154e+08 8.621230e-04 -7.582880e-04 8.883293e-01 -3.350830e-01 8.883293e-01 -3.350830e-01 8.621230e-04 -7.582880e-04
1.174898e+08 8.690417e-04 -7.906648e-04 8.854702e-01 -3.425298e-01 8.854702e-01 -3.425298e-01 8.690417e-04 -7.906648e-04
1.202264e+08 8.752412e-04 -8.242528e-04 8.824799e-01 -3.501249e-01 8.824799e-01 -3.501249e-01 8.752412e-04 -8.242528e-04
1.230269e+08 8.806492e-04 -8.590798e-04 8.793525e-01 -3.578699e-01 8.793525e-01 -3.578699e-01 8.806492e-04 -8.590798e-04
1.258925e+08 8.851885e-04 -8.951729e-04 8.760818e-01 -3.657663e-01 8.760818e-01 -3.657663e-01 8.851885e-04 -8.951729e-04
1.288250e+08 8.887768e-04 -9.325571e-04 8.726616e-01 -3.738158e-01 8.726616e-01 -3.738158e-01 8.887768e-04 -9.325571e-04
1.318257e+08 8.913264e-04 -9.712559e-04 8.690852e-01 -3.820196e-01 8.690852e-01 -3.820196e-01 8.913264e-04 -9.712559e-04
1.348963e+08 8.927443e-04 -1.011290e-03 8.653456e-01 -3.903792e-01 8.653456e-01 -3.903792e-01 8.927443e-04 -1.011290e-03
1.380384e+08 8.929317e-04 -1.052679e-03 8.614357e-01 -3.988955e-01 8.614357e-01 -3.988955e-01 8.929317e-04 -1.052679e-03
1.412538e+08 8.917837e-04 -1.095438e-03 8.573480e-01 -4.075697e-01 8.573480e-01 -4.075697e-01 8.917837e-04 -1.095438e-03
1.445440e+08 8.891891e-04 -1.139578e-03 8.530746e-01 -4.164025e-01 8.530746e-01 -4.164025e-01 8.891891e-04 -1.139578e-03
1.479108e+08 8.850303e-04 -1.185109e-03 8.486075e-01 -4.253948e-01 8.486075e-01 -4.253948e-01 8.850303e-04 -1.185109e-03
1.513561e+08 8.791831e-04 -1.232033e-03 8.439382e-01 -4.345468e-01 8.439382e-01 -4.345468e-01 8.791831e-04 -1.232033e-03
1.548817e+08 8.715163e-04 -1.280348e-03 8.390580e-01 -4.438590e-01 8.390580e-01 -4.438590e-01 8.715163e-04 -1.280348e-03
1.584893e+08 8.618915e-04 -1.330049e-03 8.339578e-01 -4.533314e-01 8.339578e-01 -4.533314e-01 8.618915e-04 -1.330049e-03
1.621810e+08 8.501633e-04 -1.381119e-03 8.286281e-01 -4.629638e-01 8.286281e-01 -4.629638e-01 8.501633e-04 -1.381119e-03
1.659587e+08 8.361786e-04 -1.433539e-03 8.230590e-01 -4.727556e-01 8.230590e-01 -4.727556e-01 8.361786e-04 -1.433539e-03
1.698244e+08 8.197769e-04 -1.487279e-03 8.172405e-01 -4.827062e-01 8.172405e-01 -4.827062e-01 8.197769e-04 -1.487279e-03
1.737801e+08 8.007901e-04 -1.542299e-03 8.111620e-01 -4.928145e-01 8.111620e-01 -4.928145e-01 8.007901e-04 -1.542299e-03
1.778279e+08 7.790426e-04 -1.598553e-03 8.048124e-01 -5.030790e-01 8.048124e-01 -5.030790e-01 7.790426e-04 -1.598553e-03
1.819701e+08 7.543509e-04 -1.655979e-03 7.981805e-01 -5.134978e-01 7.981805e-01 -5.134978e-01 7.543509e-04 -1.655979e-03
1.862087e+08 7.265241e-04 -1.714506e-03 7.912545e-01 -5.240689e-01 7.912545e-01 -5.240689e-01 7.265241e-04 -1.714506e-03
1.905461e+08 6.953641e-04 -1.774049e-03 7.840223e-01 -5.347895e-01 7.840223e-01 -5.347895e-01 6.953641e-04 -1.774049e-03
1.949845e+08 6.606654e-04 -1.834507e-03 7.764712e-01 -5.456565e-01 7.764712e-01 -5.456565e-01 6.606654e-04 -1.834507e-03
1.995262e+08 6.222160e-04 -1.895763e-03 7.685884e-01 -5.566663e-01 7.685884e-01 -5.566663e-01 6.222160e-04 -1.895763e-03
2.041738e+08 5.797972e-04 -1.957685e-03 7.603604e-01 -5.678146e-01 7.603604e-01 -5.678146e-01 5.797972e-04 -1.957685e-03
2.089296e+08 5.331849e-04 -2.020117e-03 7.517734e-01 -5.790967e-01 7.517734e-01 -5.790967e-01 5.331849e-04 -2.020117e-03
2.137962e+08 4.821498e-04 -2.082886e-03 7.428131e-01 -5.905072e-01 7.428131e-01 -5.905072e-01 4.821498e-04 -2.082886e-03
2.187762e+08 4.264584e-04 -2.145795e-03 7.334649e-01 -6.020400e-01 7.334649e-01 -6.020400e-01 4.264584e-04 -2.145795e-03
2.238721e+08 3.658741e-04 -2.208621e-03 7.237136e-01 -6.136882e-01 7.237136e-01 -6.136882e-01 3.658741e-04 -2.208621e-03
2.290868e+08 3.001585e-04 -2.271119e-03 7.135437e-01 -6.254442e-01 7.135437e-01 -6.254442e-01 3.001585e-04 -2.271119e-03
2.344229e+08 2.290727e-04 -2.333010e-03 7.029392e-01 -6.372996e-01 7.029392e-01 -6.372996e-01 2.290727e-04 -2.333010e-03
2.398833e+08 1.523795e-04 -2.393988e-03 6.918840e-01 -6.492451e-01 6.918840e-01 -6.492451e-01 1.523795e-04 -2.393988e-03
2.454709e+08 6.984478e-05 -2.453715e-03 6.803611e-01 -6.612702e-01 6.803611e-01 -6.612702e-01 6.984478e-05 -2.453715e-03
2.511886e+08 -1.875976e-05 -2.511816e-03 6.683535e-01 -6.733638e-01 6.683535e-01 -6.733638e-01 -1.875976e-05 -2.511816e-03
2.570396e+08 -1.136540e-04 -2.567882e-03 6.558438e-01 -6.855134e-01 6.558438e-01 -6.855134e-01 -1.136540e-04 -2.567882e-03
2.630268e+08 -2.150466e-04 -2.621462e-03 6.428142e-01 -6.977055e-01 6.428142e-01 -6.977055e-01 -2.150466e-04 -2.621462e-03
2.691535e+08 -3.231311e-04 -2.672068e-03 6.292465e-01 -7.099251e-01 6.292465e-01 -7.099251e-01 -3.231311e-04 -2.672068e-03
2.754229e+08 -4.380826e-04 -2.719165e-03 6.151224e-01 -7.221563e-01 6.151224e-01 -7.221563e-01 -4.380826e-04 -2.719165e-03
2.818383e+08 -5.600530e-04 -2.762177e-03 6.004234e-01 -7.343816e-01 6.004234e-01 -7.343816e-01 -5.600530e-04 -2.762177e-03
2.884032e+08 -6.891666e-04 -2.800480e-03 5.851306e-01 -7.465819e-01 5.851306e-01 -7.465819e-01 -6.891666e-04 -2.800480e-03
2.951209e+08 -8.255141e-04 -2.833401e-03 5.692250e-01 -7.587367e-01 5.692250e-01 -7.587367e-01 -8.255141e-04 -2.833401e-03
3.019952e+08 -9.691474e-04 -2.860221e-03 5.526878e-01 -7.708239e-01 5.526878e-01 -7.708239e-01 -9.691474e-04 -2.860221e-03
3.090295e+08 -1.120073e-03 -2.880167e-03 5.354998e-01 -7.828196e-01 5.354998e-01 -7.828196e-01 -1.120073e-03 -2.880167e-03
3.162278e+08 -1.278243e-03 -2.892420e-03 5.176422e-01 -7.946980e-01 5.176422e-01 -7.946980e-01 -1.278243e-03 -2.892420e-03
3.235937e+08 -1.443550e-03 -2.896109e-03 4.990961e-01 -8.064314e-01 4.990961e-01 -8.064314e-01 -1.443550e-03 -2.896109e-03
3.311311e+08 -1.615819e-03 -2.890314e-03 4.798428e-01 -8.179901e-01 4.798428e-01 -8.179901e-01 -1.615819e-03 -2.890314e-03
3.388442e+08 -1.794793e-03 -2.874066e-03 4.598643e-01 -8.293423e-01 4.598643e-01 -8.293423e-01 -1.794793e-03 -2.874066e-03
3.467369e+08 -1.980130e-03 -2.846354e-03 4.391427e-01 -8.404538e-01 4.391427e-01 -8.404538e-01 -1.980130e-03 -2.846354e-03
3.548134e+08 -2.171388e-03 -2.806124e-03 4.176609e-01 -8.512883e-01 4.176609e-01 -8.512883e-01 -2.171388e-03 -2.806124e-03
3.630781e+08 -2.368015e-03 -2.752285e-03 3.954023e-01 -8.618069e-01 3.954023e-01 -8.618069e-01 -2.368015e-03 -2.752285e-03
3.715352e+08 -2.569340e-03 -2.683716e-03 3.723515e-01 -8.719680e-01 3.723515e-01 -8.719680e-01 -2.569340e-03 -2.683716e-03
3.801894e+08 -2.774557e-03 -2.599276e-03 3.484940e-01 -8.817277e-01 3.484940e-01 -8.817277e-01 -2.774557e-03 -2.599276e-03
3.890451e+08 -2.982712e-03 -2.497807e-03 3.238165e-01 -8.910391e-01 3.238165e-01 -8.910391e-01 -2.982712e-03 -2.497807e-03
3.981072e+08 -3.192698e-03 -2.378153e-03 2.983073e-01 -8.998526e-01 2.983073e-01 -8.998526e-01 -3.192698e-03 -2.378153e-03
4.073803e+08 -3.403231e-03 -2.239171e-03 2.719563e-01 -9.081155e-01 2.719563e-01 -9.081155e-01 -3.403231e-03 -2.239171e-03
4.168694e+08 -3.612847e-03 -2.079747e-03 2.447555e-01 -9.157723e-01 2.447555e-01 -9.157723e-01 -3.612847e-03 -2.079747e-03
4.265795e+08 -3.819884e-03 -1.898815e-03 2.166989e-01 -9.227641e-01 2.166989e-01 -9.227641e-01 -3.819884e-03 -1.898815e-03
4.365158e+08 -4.022474e-03 -1.695380e-03 1.877833e-01 -9.290292e-01 1.877833e-01 -9.290292e-01 -4.022474e-03 -1.695380e-03
4.466836e+08 -4.218530e-03 -1.468545e-03 1.580082e-01 -9.345025e-01 1.580082e-01 -9.345025e-01 -4.218530e-03 -1.468545e-03
4.570882e+08 -4.405742e-03 -1.217536e-03 1.273761e-01 -9.391157e-01 1.273761e-01 -9.391157e-01 -4.405742e-03 -1.217536e-03
4.677351e+08 -4.581566e-03 -9.417395e-04 9.589343e-02 -9.427971e-01 9.589343e-02 -9.427971e-01 -4.581566e-03 -9.417395e-04
4.786301e+08 -4.743220e-03 -6.407325e-04 6.357032e-02 -9.454721e-01 6.357032e-02 -9.454721e-01 -4.743220e-03 -6.407325e-04
4.897788e+08 -4.887691e-03 -3.143275e-04 3.042138e-02 -9.470626e-01 3.042138e-02 -9.470626e-01 -4.887691e-03 -3.143275e-04
5.011872e+08 -5.011733e-03 3.738626e-05 -3.533959e-03 -9.474875e-01 -3.533959e-03 -9.474875e-01 -5.011733e-03 3.738626e-05
5.128614e+08 -5.111877e-03 4.139947e-04 -3.827094e-02 -9.466624e-01 -3.827094e-02 -9.466624e-01 -5.111877e-03 4.139947e-04
5.248075e+08 -5.184451e-03 8.147084e-04 -7.375896e-02 -9.445003e-01 -7.375896e-02 -9.445003e-01 -5.184451e-03 8.147084e-04
5.370318e+08 -5.225601e-03 1.238308e-03 -1.099610e-01 -9.409112e-01 -1.099610e-01 -9.409112e-01 -5.225601e-03 1.238308e-03
5.495409e+08 -5.231321e-03 1.683091e-03 -1.468333e-01 -9.358028e-01 -1.468333e-01 -9.358028e-01 -5.231321e-03 1.683091e-03
5.623413e+08 -5.197499e-03 2.146806e-03 -1.843242e-01 -9.290803e-01 -1.843242e-01 -9.290803e-01 -5.197499e-03 2.146806e-03
5.754399e+08 -5.119966e-03 2.626605e-03 -2.223741e-01 -9.206473e-01 -2.223741e-01 -9.206473e-01 -5.119966e-03 2.626605e-03
5.888437e+08 -4.994564e-03 3.118977e-03 -2.609146e-01 -9.104055e-01 -2.609146e-01 -9.104055e-01 -4.994564e-03 3.118977e-03
6.025596e+08 -4.817222e-03 3.619693e-03 -2.998678e-01 -8.982561e-01 -2.998678e-01 -8.982561e-01 -4.817222e-03 3.619693e-03
6.165950e+08 -4.584051e-03 4.123762e-03 -3.391457e-01 -8.840996e-01 -3.391457e-01 -8.840996e-01 -4.584051e-03 4.123762e-03
6.309573e+08 -4.291456e-03 4.625378e-03 -3.786494e-01 -8.678367e-01 -3.786494e-01 -8.678367e-01 -4.291456e-03 4.625378e-03
6.456542e+08 -3.936256e-03 5.117893e-03 -4.182686e-01 -8.493692e-01 -4.182686e-01 -8.493692e-01 -3.936256e-03 5.117893e-03
6.606934e+08 -3.515833e-03 5.593791e-03 -4.578808e-01 -8.286010e-01 -4.578808e-01 -8.286010e-01 -3.515833e-03 5.593791e-03
6.760830e+08 -3.028292e-03 6.044689e-03 -4.973506e-01 -8.054384e-01 -4.973506e-01 -8.054384e-01 -3.028292e-03 6.044689e-03
6.918310e+08 -2.472631e-03 6.461355e-03 -5.365292e-01 -7.797923e-01 -5.365292e-01 -7.797923e-01 -2.472631e-03 6.461355e-03
7.079458e+08 -1.848944e-03 6.833749e-03 -5.752539e-01 -7.515784e-01 -5.752539e-01 -7.515784e-01 -1.848944e-03 6.833749e-03
7.244360e+08 -1.158618e-03 7.151108e-03 -6.133471e-01 -7.207193e-01 -6.133471e-01 -7.207193e-01 -1.158618e-03 7.151108e-03
7.413102e+08 -4.045496e-04 7.402056e-03 -6.506164e-01 -6.871460e-01 -6.506164e-01 -6.871460e-01 -4.045496e-04 7.402056e-03
7.585776e+08 4.086337e-04 7.574762e-03 -6.868540e-01 -6.507992e-01 -6.868540e-01 -6.507992e-01 4.086337e-04 7.574762e-03
7.762471e+08 1.274357e-03 7.657152e-03 -7.218362e-01 -6.116316e-01 -7.218362e-01 -6.116316e-01 1.274357e-03 7.657152e-03
7.943282e+08 2.183890e-03 7.637170e-03 -7.553239e-01 -5.696099e-01 -7.553239e-01 -5.696099e-01 2.183890e-03 7.637170e-03
8.128305e+08 3.126156e-03 7.503099e-03 -7.870622e-01 -5.247168e-01 -7.870622e-01 -5.247168e-01 3.126156e-03 7.503099e-03
8.317638e+08 4.087580e-03 7.243948e-03 -8.167806e-01 -4.769539e-01 -8.167806e-01 -4.769539e-01 4.087580e-03 7.243948e-03
8.511380e+08 5.051973e-03 6.849903e-03 -8.441940e-01 -4.263435e-01 -8.441940e-01 -4.263435e-01 5.051973e-03 6.849903e-03
8.709636e+08 6.000486e-03 6.312838e-03 -8.690032e-01 -3.729320e-01 -8.690032e-01 -3.729320e-01 6.000486e-03 6.312838e-03
8.912509e+08 6.911646e-03 5.626897e-03 -8.908958e-01 -3.167928e-01 -8.908958e-01 -3.167928e-01 6.911646e-03 5.626897e-03
9.120108e+08 7.761488e-03 4.789121e-03 -9.095482e-01 -2.580287e-01 -9.095482e-01 -2.580287e-01 7.761488e-03 4.789121e-03
9.332543e+08 8.523816e-03 3.800120e-03 -9.246271e-01 -1.967755e-01 -9.246271e-01 -1.967755e-01 8.523816e-03 3.800120e-03
9.549926e+08 9.170609e-03 2.664772e-03 -9.357920e-01 -1.332052e-01 -9.357920e-01 -1.332052e-01 9.170609e-03 2.664772e-03
9.772372e+08 9.672593e-03 1.392911e-03 -9.426982e-01 -6.752880e-02 -9.426982e-01 -6.752880e-02 9.672593e-03 1.392911e-03
1.000000e+09 1.000000e-02 2.449294e-18 -9.450000e-01 -1.157291e-16 -9.450000e-01 -1.157291e-16 1.000000e-02 2.449294e-18
1.023293e+09 1.012353e-02 -1.492291e-03 -9.423548e-01 6.908214e-02 -9.423548e-01 6.908214e-02 1.012353e-02 -1.492291e-03
1.047129e+09 1.001554e-02 -3.055613e-03 -9.344280e-01 1.393701e-01 -9.344280e-01 1.393701e-01 1.001554e-02 -3.055613e-03
1.071519e+09 9.651403e-03 -4.654651e-03 -9.208983e-01 2.104652e-01 -9.208983e-01 2.104652e-01 9.651403e-03 -4.654651e-03
1.096478e+09 9.011126e-03 -6.247083e-03 -9.014639e-01 2.819156e-01 -9.014639e-01 2.819156e-01 9.011126e-03 -6.247083e-03
1.122018e+09 8.081098e-03 -7.783855e-03 -8.758494e-01 3.532141e-01 -8.758494e-01 3.532141e-01 8.081098e-03 -7.783855e-03
1.148154e+09 6.855981e-03 -9.209842e-03 -8.438136e-01 4.237973e-01 -8.438136e-01 4.237973e-01 6.855981e-03 -9.209842e-03
1.174898e+09 5.340660e-03 -1.046498e-02 -8.051581e-01 4.930451e-01 -8.051581e-01 4.930451e-01 5.340660e-03 -1.046498e-02
1.202264e+09 3.552146e-03 -1.148591e-02 -7.597363e-01 5.602815e-01 -7.597363e-01 5.602815e-01 3.552146e-03 -1.148591e-02
1.230269e+09 1.521321e-03 -1.220826e-02 -7.074640e-01 6.247759e-01 -7.074640e-01 6.247759e-01 1.521321e-03 -1.220826e-02
1.258925e+09 -7.056356e-04 -1.256946e-02 -6.483295e-01 6.857468e-01 -6.483295e-01 6.857468e-01 -7.056356e-04 -1.256946e-02
1.288250e+09 -3.066320e-03 -1.251225e-02 -5.824050e-01 7.423662e-01 -5.824050e-01 7.423662e-01 -3.066320e-03 -1.251225e-02
1.318257e+09 -5.481881e-03 -1.198871e-02 -5.098584e-01 7.937659e-01 -5.098584e-01 7.937659e-01 -5.481881e-03 -1.198871e-02
1.348963e+09 -7.857721e-03 -1.096478e-02 -4.309650e-01 8.390468e-01 -4.309650e-01 8.390468e-01 -7.857721e-03 -1.096478e-02
1.380384e+09 -1.008535e-02 -9.425058e-03 -3.461187e-01 8.772889e-01 -3.461187e-01 8.772889e-01 -1.008535e-02 -9.425058e-03
1.412538e+09 -1.204560e-02 -7.377647e-03 -2.558443e-01 9.075651e-01 -2.558443e-01 9.075651e-01 -1.204560e-02 -7.377647e-03
1.445440e+09 -1.361334e-02 -4.858655e-03 -1.608068e-01 9.289573e-01 -1.608068e-01 9.289573e-01 -1.361334e-02 -4.858655e-03
1.479108e+09 -1.466384e-02 -1.935994e-03 -6.182149e-02 9.405750e-01 -6.182149e-02 9.405750e-01 -1.466384e-02 -1.935994e-03
1.513561e+09 -1.508070e-02 1.288113e-03 4.013916e-02 9.415770e-01 4.013916e-02 9.415770e-01 -1.508070e-02 1.288113e-03
1.548817e+09 -1.476530e-02 4.676451e-03 1.439404e-01 9.311967e-01 1.439404e-01 9.311967e-01 -1.476530e-02 4.676451e-03
1.584893e+09 -1.364725e-02 8.058606e-03 2.482834e-01 9.087693e-01 2.482834e-01 9.087693e-01 -1.364725e-02 8.058606e-03
1.621810e+09 -1.169546e-02 1.123579e-02 3.517076e-01 8.737622e-01 3.517076e-01 8.737622e-01 -1.169546e-02 1.123579e-02
1.659587e+09 -8.928851e-03 1.398923e-02 4.525971e-01 8.258079e-01 4.525971e-01 8.258079e-01 -8.928851e-03 1.398923e-02
1.698244e+09 -5.425775e-03 1.609236e-02 5.491937e-01 7.647385e-01 5.491937e-01 7.647385e-01 -5.425775e-03 1.609236e-02
1.737801e+09 -1.330714e-03 1.732698e-02 6.396156e-01 6.906217e-01 6.396156e-01 6.906217e-01 -1.330714e-03 1.732698e-02
1.778279e+09 3.143132e-03 1.750281e-02 7.218834e-01 6.037961e-01 7.218834e-01 6.037961e-01 3.143132e-03 1.750281e-02
1.819701e+09 7.716949e-03 1.647968e-02 7.939553e-01 5.049066e-01 7.939553e-01 5.049066e-01 7.716949e-03 1.647968e-02
1.862087e+09 1.205652e-02 1.419075e-02 8.537693e-01 3.949366e-01 8.537693e-01 3.949366e-01 1.205652e-02 1.419075e-02
1.905461e+09 1.579063e-02 1.066461e-02 8.992965e-01 2.752356e-01 8.992965e-01 2.752356e-01 1.579063e-02 1.066461e-02
1.949845e+09 1.853823e-02 6.043455e-03 9.286028e-01 1.475410e-01 9.286028e-01 1.475410e-01 1.853823e-02 6.043455e-03
1.995262e+09 1.994378e-02 5.938570e-04 9.399196e-01 1.399068e-02 9.399196e-01 1.399068e-02 1.994378e-02 5.938570e-04
2.041738e+09 1.971931e-02 -5.293239e-03 9.317238e-01 -1.228760e-01 9.317238e-01 -1.228760e-01 1.971931e-02 -5.293239e-03
2.089296e+09 1.768985e-02 -1.111688e-02 9.028247e-01 -2.601313e-01 9.028247e-01 -2.601313e-01 1.768985e-02 -1.111688e-02
2.137962e+09 1.383769e-02 -1.629744e-02 8.524564e-01 -3.944893e-01 8.524564e-01 -3.944893e-01 1.383769e-02 -1.629744e-02
2.187762e+09 8.338964e-03 -2.022602e-02 7.803718e-01 -5.223560e-01 7.803718e-01 -5.223560e-01 8.338964e-03 -2.022602e-02
2.238721e+09 1.585191e-03 -2.233102e-02 6.869369e-01 -6.399025e-01 6.869369e-01 -6.399025e-01 1.585191e-03 -2.233102e-02
2.290868e+09 -5.818037e-03 -2.215757e-02 5.732177e-01 -7.431618e-01 5.732177e-01 -7.431618e-01 -5.818037e-03 -2.215757e-02
2.344229e+09 -1.308242e-02 -1.945228e-02 4.410563e-01 -8.281525e-01 4.410563e-01 -8.281525e-01 -1.308242e-02 -1.945228e-02
2.398833e+09 -1.930305e-02 -1.424192e-02 2.931287e-01 -8.910278e-01 2.931287e-01 -8.910278e-01 -1.930305e-02 -1.424192e-02
2.454709e+09 -2.355985e-02 -6.891521e-03 1.329757e-01 -9.282502e-01 1.329757e-01 -9.282502e-01 -2.355985e-02 -6.891521e-03
2.511886e+09 -2.504884e-02 1.874250e-03 -3.499808e-02 -9.367870e-01 -3.499808e-02 -9.367870e-01 -2.504884e-02 1.874250e-03
2.570396e+09 -2.323035e-02 1.100202e-02 -2.055695e-01 -9.143236e-01 -2.055695e-01 -9.143236e-01 -2.323035e-02 1.100202e-02
2.630268e+09 -1.797311e-02 1.920412e-02 -3.727912e-01 -8.594836e-01 -3.727912e-01 -8.594836e-01 -1.797311e-02 1.920412e-02
2.691535e+09 -9.666413e-03 2.511964e-02 -5.301436e-01 -7.720487e-01 -5.301436e-01 -7.720487e-01 -9.666413e-03 2.511964e-02
2.754229e+09 7.317049e-04 2.753257e-02 -6.707499e-01 -6.531609e-01 -6.707499e-01 -6.531609e-01 7.317049e-04 2.753257e-02
2.818383e+09 1.174037e-02 2.562210e-02 -7.876555e-01 -5.054926e-01 -7.876555e-01 -5.054926e-01 1.174037e-02 2.562210e-02
2.884032e+09 2.151698e-02 1.920373e-02 -8.741723e-01 -3.333653e-01 -8.741723e-01 -3.333653e-01 2.151698e-02 1.920373e-02
2.951209e+09 2.813615e-02 8.906224e-03 -9.242787e-01 -1.427942e-01 -9.242787e-01 -1.427942e-01 2.813615e-02 8.906224e-03
3.019952e+09 2.996253e-02 -3.775914e-03 -9.330643e-01 5.856135e-02 -9.330643e-01 5.856135e-02 2.996253e-02 -3.775914e-03
3.090295e+09 2.606145e-02 -1.660704e-02 -8.971987e-01 2.615636e-01 -8.971987e-01 2.615636e-01 2.606145e-02 -1.660704e-02
3.162278e+09 1.656051e-02 -2.693974e-02 -8.153945e-01 4.558950e-01 -8.153945e-01 4.558950e-01 1.656051e-02 -2.693974e-02
3.235937e+09 2.855656e-03 -3.223312e-02 -6.888304e-01 6.305022e-01 -6.888304e-01 6.305022e-01 2.855656e-03 -3.223312e-02
3.311311e+09 -1.244298e-02 -3.068632e-02 -5.214884e-01 7.741877e-01 -5.214884e-01 7.741877e-01 -1.244298e-02 -3.068632e-02
3.388442e+09 -2.589565e-02 -2.185335e-02 -3.203564e-01 8.763382e-01 -3.203564e-01 8.763382e-01 -2.589565e-02 -2.185335e-02
3.467369e+09 -3.394744e-02 -7.059433e-03 -9.544446e-02 9.277666e-01 -9.544446e-02 9.277666e-01 -3.394744e-02 -7.059433e-03
3.548134e+09 -3.387099e-02 1.056793e-02 1.404369e-01 9.216208e-01 1.404369e-01 9.216208e-01 -3.387099e-02 1.056793e-02
3.630781e+09 -2.472430e-02 2.658883e-02 3.721767e-01 8.542960e-01 3.721767e-01 8.542960e-01 -2.472430e-02 2.658883e-02
3.715352e+09 -8.024511e-03 3.627660e-02 5.831697e-01 7.262660e-01 5.831697e-01 7.262660e-01 -8.024511e-03 3.627660e-02
3.801894e+09 1.217794e-02 3.601579e-02 7.564298e-01 5.427313e-01 7.564298e-01 5.427313e-01 1.217794e-02 3.601579e-02
3.890451e+09 3.004667e-02 2.471354e-02 8.759807e-01 3.139697e-01 8.759807e-01 3.139697e-01 3.004667e-02 2.471354e-02
3.981072e+09 3.952950e-02 4.723534e-03 9.284507e-01 5.527548e-02 9.284507e-01 5.527548e-02 3.952950e-02 4.723534e-03
4.073803e+09 3.643594e-02 -1.822111e-02 9.047551e-01 -2.136166e-01 9.047551e-01 -2.136166e-01 3.643594e-02 -1.822111e-02
4.168694e+09 2.038196e-02 -3.636450e-02 8.016982e-01 -4.696934e-01 8.016982e-01 -4.696934e-01 2.038196e-02 -3.636450e-02
