! 10m lossy cable S-parameters
! Skin effect and dielectric loss modeled
# Hz S RI R 50
1.000000e+08 -4.997483e-02 1.586397e-03 9.391849e-01 -3.084581e-01 9.391849e-01 -3.084581e-01 -4.997483e-02 1.586397e-03
1.023293e+08 -4.972121e-02 5.272654e-03 4.862250e-01 -8.605457e-01 4.862250e-01 -8.605457e-01 -4.972121e-02 5.272654e-03
1.047129e+08 -4.918062e-02 9.014806e-03 -2.369108e-01 -9.594597e-01 -2.369108e-01 -9.594597e-01 -4.918062e-02 9.014806e-03
1.071519e+08 -4.833633e-02 1.279059e-02 -8.399676e-01 -5.204586e-01 -8.399676e-01 -5.204586e-01 -4.833633e-02 1.279059e-02
1.096478e+08 -4.717281e-02 1.657486e-02 -9.603150e-01 2.322665e-01 -9.603150e-01 2.322665e-01 -4.717281e-02 1.657486e-02
1.122018e+08 -4.567608e-02 2.033951e-02 -4.934320e-01 8.558063e-01 -4.934320e-01 8.558063e-01 -4.567608e-02 2.033951e-02
1.148154e+08 -4.383415e-02 2.405342e-02 2.978705e-01 9.417413e-01 2.978705e-01 9.417413e-01 -4.383415e-02 2.405342e-02
1.174898e+08 -4.163749e-02 2.768247e-02 9.034430e-01 3.988921e-01 9.034430e-01 3.988921e-01 -4.163749e-02 2.768247e-02
1.202264e+08 -3.907954e-02 3.118957e-02 8.879950e-01 -4.318642e-01 8.879950e-01 -4.318642e-01 -3.907954e-02 3.118957e-02
1.230269e+08 -3.615726e-02 3.453480e-02 2.245725e-01 -9.614173e-01 2.245725e-01 -9.614173e-01 -3.615726e-02 3.453480e-02
1.258925e+08 -3.287170e-02 3.767560e-02 -6.206355e-01 -7.676449e-01 -6.206355e-01 -7.676449e-01 -3.287170e-02 3.767560e-02
1.288250e+08 -2.922863e-02 4.056707e-02 -9.862272e-01 3.912673e-02 -9.862272e-01 3.912673e-02 -2.922863e-02 4.056707e-02
1.318257e+08 -2.523916e-02 4.316231e-02 -5.399259e-01 8.260506e-01 -5.399259e-01 8.260506e-01 -2.523916e-02 4.316231e-02
1.348963e+08 -2.092032e-02 4.541299e-02 3.801353e-01 9.105372e-01 3.801353e-01 9.105372e-01 -2.092032e-02 4.541299e-02
1.380384e+08 -1.629577e-02 4.726995e-02 9.709253e-01 1.748795e-01 9.709253e-01 1.748795e-01 -1.629577e-02 4.726995e-02
1.412538e+08 -1.139630e-02 4.868392e-02 6.568206e-01 -7.359075e-01 6.568206e-01 -7.359075e-01 -1.139630e-02 4.868392e-02
1.445440e+08 -6.260401e-03 4.960653e-02 -3.059476e-01 -9.375821e-01 -3.059476e-01 -9.375821e-01 -6.260401e-03 4.960653e-02
1.479108e+08 -9.347458e-04 4.999126e-02 -9.688953e-01 -1.832852e-01 -9.688953e-01 -1.832852e-01 -9.347458e-04 4.999126e-02
1.513561e+08 4.525506e-03 4.979478e-02 -6.079471e-01 7.761675e-01 -6.079471e-01 7.761675e-01 4.525506e-03 4.979478e-02
1.548817e+08 1.005648e-02 4.897823e-02 4.325944e-01 8.857641e-01 4.325944e-01 8.857641e-01 1.005648e-02 4.897823e-02
1.584893e+08 1.558557e-02 4.750884e-02 9.851968e-01 -2.793181e-02 9.851968e-01 -2.793181e-02 1.558557e-02 4.750884e-02
1.621810e+08 2.103165e-02 4.536154e-02 3.572262e-01 -9.183983e-01 3.572262e-01 -9.183983e-01 2.103165e-02 4.536154e-02
1.659587e+08 2.630556e-02 4.252079e-02 -7.256041e-01 -6.665090e-01 -7.256041e-01 -6.665090e-01 2.630556e-02 4.252079e-02
1.698244e+08 3.131085e-02 3.898244e-02 -8.720662e-01 4.581505e-01 -8.720662e-01 4.581505e-01 3.131085e-02 3.898244e-02
1.737801e+08 3.594503e-02 3.475564e-02 1.648954e-01 9.710164e-01 1.648954e-01 9.710164e-01 3.594503e-02 3.475564e-02
1.778279e+08 4.010105e-02 2.986479e-02 9.778888e-01 1.159953e-01 9.778888e-01 1.159953e-01 4.010105e-02 2.986479e-02
1.819701e+08 4.366937e-02 2.435130e-02 3.600939e-01 -9.163559e-01 3.600939e-01 -9.163559e-01 4.366937e-02 2.435130e-02
1.862087e+08 4.654046e-02 1.827528e-02 -8.123605e-01 -5.559647e-01 -8.123605e-01 -5.559647e-01 4.654046e-02 1.827528e-02
1.905461e+08 4.860776e-02 1.171689e-02 -7.023021e-01 6.895249e-01 -7.023021e-01 6.895249e-01 4.860776e-02 1.171689e-02
1.949845e+08 4.977125e-02 4.777347e-03 5.668338e-01 8.043723e-01 5.668338e-01 8.043723e-01 4.977125e-02 4.777347e-03
1.995262e+08 4.994137e-02 -2.420668e-03 8.706947e-01 -4.580881e-01 8.706947e-01 -4.580881e-01 4.994137e-02 -2.420668e-03
2.041738e+08 4.904350e-02 -9.733187e-03 -3.724746e-01 -9.104126e-01 -3.724746e-01 -9.104126e-01 4.904350e-02 -9.733187e-03
2.089296e+08 4.702271e-02 -1.699602e-02 -9.314441e-01 3.156432e-01 -9.314441e-01 3.156432e-01 4.702271e-02 -1.699602e-02
2.137962e+08 4.384876e-02 -2.402677e-02 2.908269e-01 9.392895e-01 2.908269e-01 9.392895e-01 4.384876e-02 -2.402677e-02
2.187762e+08 3.952120e-02 -3.062800e-02 9.362996e-01 -2.996832e-01 9.362996e-01 -2.996832e-01 3.952120e-02 -3.062800e-02
2.238721e+08 3.407425e-02 -3.659161e-02 -3.426434e-01 -9.212385e-01 -3.426434e-01 -9.212385e-01 3.407425e-02 -3.659161e-02
2.290868e+08 2.758128e-02 -4.170459e-02 -8.890715e-01 4.186290e-01 -8.890715e-01 4.186290e-01 2.758128e-02 -4.170459e-02
2.344229e+08 2.015856e-02 -4.575623e-02 5.240476e-01 8.310726e-01 5.240476e-01 8.310726e-01 2.015856e-02 -4.575623e-02
2.398833e+08 1.196782e-02 -4.854659e-02 7.355352e-01 -6.510762e-01 7.355352e-01 -6.510762e-01 1.196782e-02 -4.854659e-02
2.454709e+08 3.217287e-03 -4.989638e-02 -7.854404e-01 -5.895727e-01 -7.854404e-01 -5.895727e-01 3.217287e-03 -4.989638e-02
2.511886e+08 -5.839278e-03 -4.965786e-02 -3.826099e-01 9.042777e-01 -3.826099e-01 9.042777e-01 -5.839278e-03 -4.965786e-02
2.570396e+08 -1.490597e-02 -4.772643e-02 9.752684e-01 1.120339e-01 9.752684e-01 1.120339e-01 -1.490597e-02 -4.772643e-02
2.630268e+08 -2.365103e-02 -4.405257e-02 -2.091743e-01 -9.589228e-01 -2.091743e-01 -9.589228e-01 -2.365103e-02 -4.405257e-02
2.691535e+08 -3.171627e-02 -3.865331e-02 -8.163657e-01 5.444409e-01 -8.163657e-01 5.444409e-01 -3.171627e-02 -3.865331e-02
2.754229e+08 -3.873004e-02 -3.162252e-02 8.291339e-01 5.243886e-01 8.291339e-01 5.243886e-01 -3.873004e-02 -3.162252e-02
2.818383e+08 -4.432362e-02 -2.313908e-02 9.686001e-02 -9.760315e-01 9.686001e-02 -9.760315e-01 -4.432362e-02 -2.313908e-02
2.884032e+08 -4.815093e-02 -1.347174e-02 -8.979476e-01 3.940526e-01 -8.979476e-01 3.940526e-01 -4.815093e-02 -1.347174e-02
2.951209e+08 -4.991114e-02 -2.979696e-03 8.111917e-01 5.505621e-01 8.111917e-01 5.505621e-01 -4.991114e-02 -2.979696e-03
3.019952e+08 -4.937315e-02 7.892506e-03 -1.404965e-02 -9.800569e-01 -1.404965e-02 -9.800569e-01 -4.937315e-02 7.892506e-03
3.090295e+08 -4.640095e-02 1.862663e-02 -7.645641e-01 6.129470e-01 -7.645641e-01 6.129470e-01 -4.640095e-02 1.862663e-02
3.162278e+08 -4.097783e-02 2.864992e-02 9.635911e-01 1.769260e-01 9.635911e-01 1.769260e-01 -4.097783e-02 2.864992e-02
3.235937e+08 -3.322756e-02 3.736214e-02 -5.409035e-01 -8.165645e-01 -5.409035e-01 -8.165645e-01 -3.322756e-02 3.736214e-02
3.311311e+08 -2.342997e-02 4.417054e-02 -1.605096e-01 9.659861e-01 -1.605096e-01 9.659861e-01 -2.342997e-02 4.417054e-02
3.388442e+08 -1.202810e-02 4.853169e-02 7.410605e-01 -6.397303e-01 7.410605e-01 -6.397303e-01 -1.202810e-02 4.853169e-02
3.467369e+08 3.757983e-04 4.999859e-02 -9.759878e-01 7.349405e-02 -9.759878e-01 7.349405e-02 3.757983e-04 4.999859e-02
3.548134e+08 1.303808e-02 4.827016e-02 8.570815e-01 4.721097e-01 8.570815e-01 4.721097e-01 1.303808e-02 4.827016e-02
3.630781e+08 2.510718e-02 4.323921e-02 -5.099626e-01 -8.348244e-01 -5.099626e-01 -8.348244e-01 2.510718e-02 4.323921e-02
3.715352e+08 3.567390e-02 3.503389e-02 8.840140e-02 9.740077e-01 8.840140e-02 9.740077e-01 3.567390e-02 3.503389e-02
3.801894e+08 4.383778e-02 2.404680e-02 2.934566e-01 -9.326820e-01 2.934566e-01 -9.326820e-01 4.383778e-02 2.404680e-02
3.890451e+08 4.878722e-02 1.094565e-02 -5.807818e-01 7.862609e-01 -5.807818e-01 7.862609e-01 4.878722e-02 1.094565e-02
3.981072e+08 4.988826e-02 -3.340879e-03 7.667905e-01 -6.058396e-01 7.667905e-01 -6.058396e-01 4.988826e-02 -3.340879e-03
4.073803e+08 4.677485e-02 -1.766673e-02 -8.711635e-01 4.422369e-01 -8.711635e-01 4.422369e-01 4.677485e-02 -1.766673e-02
4.168694e+08 3.943043e-02 -3.074478e-02 9.210196e-01 -3.251254e-01 9.210196e-01 -3.251254e-01 3.943043e-02 -3.074478e-02
4.265795e+08 2.824898e-02 -4.125524e-02 -9.386689e-01 2.690039e-01 -9.386689e-01 2.690039e-01 2.824898e-02 -4.125524e-02
4.365158e+08 1.406252e-02 -4.798172e-02 9.352482e-01 -2.797251e-01 9.352482e-01 -2.797251e-01 1.406252e-02 -4.798172e-02
4.466836e+08 -1.877520e-03 -4.996474e-02 -9.078807e-01 3.579873e-01 -9.078807e-01 3.579873e-01 -1.877520e-03 -4.996474e-02
4.570882e+08 -1.797495e-02 -4.665727e-02 8.389510e-01 -4.980209e-01 8.389510e-01 -4.980209e-01 -1.797495e-02 -4.665727e-02
4.677351e+08 -3.242429e-02 -3.806134e-02 -6.983486e-01 6.809023e-01 -6.983486e-01 6.809023e-01 -3.242429e-02 -3.806134e-02
4.786301e+08 -4.340411e-02 -2.482103e-02 4.522706e-01 -8.638398e-01 4.522706e-01 -8.638398e-01 -4.340411e-02 -2.482103e-02
4.897788e+08 -4.931528e-02 -8.246403e-03 -8.378133e-02 9.711806e-01 -8.378133e-02 9.711806e-01 -4.931528e-02 -8.246403e-03
5.011872e+08 -4.903935e-02 9.754102e-03 -3.728485e-01 -9.003511e-01 -3.728485e-01 -9.003511e-01 -4.903935e-02 9.754102e-03
5.128614e+08 -4.218118e-02 2.684676e-02 7.956016e-01 5.622249e-01 7.956016e-01 5.622249e-01 -4.218118e-02 2.684676e-02
5.248075e+08 -2.925115e-02 4.055083e-02 -9.733451e-01 3.320456e-02 -9.733451e-01 3.320456e-02 -2.925115e-02 4.055083e-02
5.370318e+08 -1.173891e-02 4.860245e-02 6.978216e-01 -6.789451e-01 6.978216e-01 -6.789451e-01 -1.173891e-02 4.860245e-02
5.495409e+08 7.964102e-03 4.936166e-02 2.806369e-02 9.729058e-01 2.806369e-02 9.729058e-01 7.964102e-03 4.936166e-02
5.623413e+08 2.681990e-02 4.219826e-02 -7.910297e-01 -5.665779e-01 -7.910297e-01 -5.665779e-01 2.681990e-02 4.219826e-02
5.754399e+08 4.157563e-02 2.777530e-02 8.983656e-01 -3.729295e-01 8.983656e-01 -3.729295e-01 4.157563e-02 2.777530e-02
5.888437e+08 4.933214e-02 8.144922e-03 -6.362605e-02 9.702995e-01 -6.362605e-02 9.702995e-01 4.933214e-02 8.144922e-03
6.025596e+08 4.816683e-02 -1.341479e-02 -8.854478e-01 -4.011197e-01 -8.854478e-01 -4.011197e-01 4.816683e-02 -1.341479e-02
6.165950e+08 3.768860e-02 -3.285681e-02 6.139336e-01 -7.532457e-01 6.139336e-01 -7.532457e-01 3.768860e-02 -3.285681e-02
6.309573e+08 1.937966e-02 -4.609152e-02 6.494012e-01 7.224565e-01 6.494012e-01 7.224565e-01 1.937966e-02 -4.609152e-02
6.456542e+08 -3.415374e-03 -4.988322e-02 -7.528915e-01 6.133391e-01 -7.528915e-01 6.133391e-01 -3.415374e-03 -4.988322e-02
6.606934e+08 -2.594673e-02 -4.274070e-02 -6.571904e-01 -7.144853e-01 -6.571904e-01 -7.144853e-01 -2.594673e-02 -4.274070e-02
6.760830e+08 -4.296665e-02 -2.557082e-02 5.918668e-01 -7.690470e-01 5.918668e-01 -7.690470e-01 -4.296665e-02 -2.557082e-02
6.918310e+08 -4.996560e-02 -1.854430e-03 9.041046e-01 3.516792e-01 9.041046e-01 3.516792e-01 -4.996560e-02 -1.854430e-03
7.079458e+08 -4.448112e-02 2.283483e-02 2.947158e-02 9.693047e-01 2.947158e-02 9.693047e-01 -4.448112e-02 2.283483e-02
7.244360e+08 -2.711746e-02 4.200766e-02 -8.259986e-01 5.074210e-01 -8.259986e-01 5.074210e-01 -2.711746e-02 4.200766e-02
7.413102e+08 -1.887298e-03 4.996437e-02 -9.008074e-01 -3.572366e-01 -9.008074e-01 -3.572366e-01 -1.887298e-03 4.996437e-02
7.585776e+08 2.441732e-02 4.363249e-02 -3.678863e-01 -8.961286e-01 -3.678863e-01 -8.961286e-01 2.441732e-02 4.363249e-02
7.762471e+08 4.388176e-02 2.396646e-02 2.736646e-01 -9.288712e-01 2.736646e-01 -9.288712e-01 4.388176e-02 2.396646e-02
7.943282e+08 4.986360e-02 -3.690764e-03 7.155926e-01 -6.518597e-01 7.155926e-01 -6.518597e-01 4.986360e-02 -3.690764e-03
8.128305e+08 3.946832e-02 -3.069612e-02 9.163397e-01 -3.108175e-01 9.163397e-01 -3.108175e-01 3.946832e-02 -3.069612e-02
8.317638e+08 1.520351e-02 -4.763248e-02 9.659430e-01 -5.024521e-02 9.659430e-01 -5.024521e-02 1.520351e-02 -4.763248e-02
8.511380e+08 -1.505502e-02 -4.767962e-02 9.635361e-01 8.028282e-02 9.635361e-01 8.028282e-02 -1.505502e-02 -4.767962e-02
8.709636e+08 -4.022923e-02 -2.969190e-02 9.637783e-01 7.243919e-02 9.637783e-01 7.243919e-02 -4.022923e-02 -2.969190e-02
8.912509e+08 -4.999841e-02 3.981500e-04 9.630528e-01 -7.685122e-02 9.630528e-01 -7.685122e-02 -4.999841e-02 3.981500e-04
9.120108e+08 -3.929202e-02 3.092147e-02 8.953106e-01 -3.620064e-01 8.953106e-01 -3.620064e-01 -3.929202e-02 3.092147e-02
9.332543e+08 -1.139545e-02 4.868412e-02 6.426740e-01 -7.203088e-01 6.426740e-01 -7.203088e-01 -1.139545e-02 4.868412e-02
9.549926e+08 2.219279e-02 4.480491e-02 1.092083e-01 -9.587412e-01 1.092083e-01 -9.587412e-01 2.219279e-02 4.480491e-02
9.772372e+08 4.595503e-02 1.970115e-02 -5.931603e-01 -7.605922e-01 -5.931603e-01 -7.605922e-01 4.595503e-02 1.970115e-02
1.000000e+09 4.750356e-02 -1.560167e-02 -9.636513e-01 3.059006e-02 -9.636513e-01 3.059006e-02 4.750356e-02 -1.560167e-02
1.023293e+09 2.459633e-02 -4.353184e-02 -4.022954e-01 8.757451e-01 -4.022954e-01 8.757451e-01 2.459633e-02 -4.353184e-02
1.047129e+09 -1.198606e-02 -4.854209e-02 7.237131e-01 6.357779e-01 7.237131e-01 6.357779e-01 -1.198606e-02 -4.854209e-02
1.071519e+09 -4.250241e-02 -2.633524e-02 7.136655e-01 -6.464134e-01 7.136655e-01 -6.464134e-01 -4.250241e-02 -2.633524e-02
1.096478e+09 -4.859872e-02 1.175432e-02 -6.919624e-01 -6.689862e-01 -6.919624e-01 -6.689862e-01 -4.859872e-02 1.175432e-02
1.122018e+09 -2.497464e-02 4.331590e-02 -4.761355e-01 8.359585e-01 -4.761355e-01 8.359585e-01 -2.497464e-02 4.331590e-02
1.148154e+09 1.507859e-02 4.767217e-02 9.586756e-01 7.510612e-02 9.586756e-01 7.510612e-02 1.507859e-02 4.767217e-02
1.174898e+09 4.574001e-02 2.019533e-02 -5.061225e-01 -8.171285e-01 -5.061225e-01 -8.171285e-01 4.574001e-02 2.019533e-02
1.202264e+09 4.496441e-02 -2.186782e-02 -1.774970e-01 9.441950e-01 -1.774970e-01 9.441950e-01 4.496441e-02 -2.186782e-02
1.230269e+09 1.137310e-02 -4.868935e-02 6.360151e-01 -7.194687e-01 6.360151e-01 -7.194687e-01 1.137310e-02 -4.868935e-02
1.258925e+09 -3.143569e-02 -3.888184e-02 -8.349604e-01 4.734169e-01 -8.349604e-01 4.734169e-01 -3.143569e-02 -3.888184e-02
1.288250e+09 -4.996070e-02 1.982098e-03 8.849386e-01 -3.705249e-01 8.849386e-01 -3.705249e-01 -4.996070e-02 1.982098e-03
1.318257e+09 -2.735593e-02 4.185275e-02 -8.442687e-01 4.546743e-01 -8.442687e-01 4.546743e-01 -2.735593e-02 4.185275e-02
1.348963e+09 1.926292e-02 4.614044e-02 6.585634e-01 -6.963593e-01 6.585634e-01 -6.963593e-01 1.926292e-02 4.614044e-02
1.380384e+09 4.920817e-02 8.863193e-03 -2.008793e-01 9.366770e-01 -2.008793e-01 9.366770e-01 4.920817e-02 8.863193e-03
1.412538e+09 3.329403e-02 -3.730292e-02 -5.144743e-01 -8.075376e-01 -5.144743e-01 -8.075376e-01 3.329403e-02 -3.730292e-02
1.445440e+09 -1.551085e-02 -4.753329e-02 9.569377e-01 -1.207773e-02 9.569377e-01 -1.207773e-02 -1.551085e-02 -4.753329e-02
1.479108e+09 -4.912869e-02 -9.293639e-03 -2.815796e-01 9.141409e-01 -2.815796e-01 9.141409e-01 -4.912869e-02 -9.293639e-03
1.513561e+09 -3.083150e-02 3.936265e-02 -8.942867e-01 -3.380044e-01 -8.942867e-01 -3.380044e-01 -3.083150e-02 3.936265e-02
1.548817e+09 2.194225e-02 4.492814e-02 1.609614e-01 -9.418769e-01 1.609614e-01 -9.418769e-01 2.194225e-02 4.492814e-02
1.584893e+09 4.997992e-02 -1.417006e-03 9.169203e-01 -2.670819e-01 9.169203e-01 -2.670819e-01 4.997992e-02 -1.417006e-03
1.621810e+09 1.812545e-02 -4.659901e-02 8.046391e-01 5.134745e-01 8.046391e-01 5.134745e-01 1.812545e-02 -4.659901e-02
1.659587e+09 -3.682301e-02 -3.382405e-02 3.926968e-01 8.694272e-01 3.926968e-01 8.694272e-01 -3.682301e-02 -3.382405e-02
1.698244e+09 -4.426330e-02 2.325426e-02 1.187976e-01 9.460473e-01 1.187976e-01 9.460473e-01 -4.426330e-02 2.325426e-02
1.737801e+09 8.371021e-03 4.929428e-02 1.058722e-01 9.470495e-01 1.058722e-01 9.470495e-01 8.371021e-03 4.929428e-02
1.778279e+09 4.965191e-02 5.889617e-03 3.622133e-01 8.808496e-01 3.622133e-01 8.808496e-01 4.965191e-02 5.889617e-03
1.819701e+09 1.828688e-02 -4.653590e-02 7.841844e-01 5.395566e-01 7.841844e-01 5.395566e-01 1.828688e-02 -4.653590e-02
1.862087e+09 -4.126207e-02 -2.823901e-02 9.138804e-01 -2.642923e-01 9.138804e-01 -2.642923e-01 -4.126207e-02 -2.823901e-02
1.905461e+09 -3.567840e-02 3.502930e-02 8.715754e-02 -9.467743e-01 8.715754e-02 -9.467743e-01 -3.567840e-02 3.502930e-02
1.949845e+09 2.880165e-02 4.087133e-02 -9.403146e-01 -1.368419e-01 -9.403146e-01 -1.368419e-01 2.880165e-02 4.087133e-02
1.995262e+09 4.424952e-02 -2.328047e-02 1.238996e-01 9.415383e-01 1.238996e-01 9.415383e-01 4.424952e-02 -2.328047e-02
2.041738e+09 -1.893308e-02 -4.627676e-02 6.996484e-01 -6.412913e-01 6.996484e-01 -6.412913e-01 -1.893308e-02 -4.627676e-02
2.089296e+09 -4.735485e-02 1.604738e-02 -9.410241e-01 1.189187e-01 -9.410241e-01 1.189187e-01 -4.735485e-02 1.604738e-02
2.137962e+09 1.478857e-02 4.776294e-02 9.387873e-01 1.313032e-01 9.387873e-01 1.313032e-01 1.478857e-02 4.776294e-02
2.187762e+09 4.762021e-02 -1.524189e-02 -9.464224e-01 -4.158530e-02 -9.464224e-01 -4.158530e-02 4.762021e-02 -1.524189e-02
2.238721e+09 -1.743030e-02 -4.686347e-02 8.647504e-01 -3.853861e-01 8.647504e-01 -3.853861e-01 -1.743030e-02 -4.686347e-02
2.290868e+09 -4.523618e-02 2.129995e-02 -2.901863e-01 9.005370e-01 -2.901863e-01 9.005370e-01 -4.523618e-02 2.129995e-02
2.344229e+09 2.666907e-02 4.229374e-02 -7.485482e-01 -5.776658e-01 -7.485482e-01 -5.776658e-01 2.666907e-02 4.229374e-02
2.398833e+09 3.743946e-02 -3.314041e-02 5.400321e-01 -7.753857e-01 5.400321e-01 -7.753857e-01 3.743946e-02 -3.314041e-02
2.454709e+09 -3.998796e-02 -3.001604e-02 9.328457e-01 1.465603e-01 9.328457e-01 1.465603e-01 -3.998796e-02 -3.001604e-02
2.511886e+09 -1.948333e-02 4.604780e-02 6.148887e-01 7.158240e-01 6.148887e-01 7.158240e-01 -1.948333e-02 4.604780e-02
2.570396e+09 4.967332e-02 5.706218e-03 3.905973e-01 8.583267e-01 3.905973e-01 8.583267e-01 4.967332e-02 5.706218e-03
2.630268e+09 -1.065616e-02 -4.885127e-02 5.140063e-01 7.898575e-01 5.140063e-01 7.898575e-01 -1.065616e-02 -4.885127e-02
2.691535e+09 -4.159788e-02 2.774196e-02 8.668422e-01 3.680163e-01 8.668422e-01 3.680163e-01 -4.159788e-02 2.774196e-02
2.754229e+09 4.225775e-02 2.672606e-02 7.527020e-01 -5.648472e-01 7.527020e-01 -5.648472e-01 4.225775e-02 2.672606e-02
2.818383e+09 4.937676e-03 -4.975560e-02 -5.166607e-01 -7.857627e-01 -5.166607e-01 -7.857627e-01 4.937676e-03 -4.975560e-02
2.884032e+09 -4.578536e-02 2.009231e-02 -5.126892e-01 7.875575e-01 -5.126892e-01 7.875575e-01 -4.578536e-02 2.009231e-02
2.951209e+09 4.137117e-02 2.807893e-02 8.913050e-01 -2.956268e-01 8.913050e-01 -2.956268e-01 4.137117e-02 2.807893e-02
3.019952e+09 -7.167035e-04 -4.999486e-02 -9.287411e-01 1.340504e-01 -9.287411e-01 1.340504e-01 -7.167035e-04 -4.999486e-02
3.090295e+09 -3.901117e-02 3.127505e-02 8.340567e-01 -4.284571e-01 8.340567e-01 -4.284571e-01 -3.901117e-02 3.127505e-02
3.162278e+09 4.917790e-02 9.029609e-03 -2.273481e-01 9.089676e-01 -2.273481e-01 9.089676e-01 4.917790e-02 9.029609e-03
3.235937e+09 -2.761215e-02 -4.168416e-02 -8.499849e-01 -3.925618e-01 -8.499849e-01 -3.925618e-01 -2.761215e-02 -4.168416e-02
3.311311e+09 -8.195702e-03 4.932373e-02 7.082210e-02 -9.328556e-01 7.082210e-02 -9.328556e-01 -8.195702e-03 4.932373e-02
3.388442e+09 3.784813e-02 -3.267291e-02 6.251687e-01 -6.950124e-01 6.251687e-01 -6.950124e-01 3.784813e-02 -3.267291e-02
3.467369e+09 -4.985884e-02 3.754481e-03 6.824346e-01 -6.378009e-01 6.824346e-01 -6.378009e-01 -4.985884e-02 3.754481e-03
3.548134e+09 4.379536e-02 2.412398e-02 2.957618e-01 -8.852384e-01 2.957618e-01 -8.852384e-01 4.379536e-02 2.412398e-02
3.630781e+09 -2.606476e-02 -4.266882e-02 -6.500728e-01 -6.686766e-01 -6.500728e-01 -6.686766e-01 -2.606476e-02 -4.266882e-02
3.715352e+09 4.519448e-03 4.979533e-02 -5.754874e-01 7.328876e-01 -5.754874e-01 7.328876e-01 4.519448e-03 4.979533e-02
3.801894e+09 1.500659e-02 -4.769489e-02 9.270172e-01 -8.672769e-02 9.270172e-01 -8.672769e-02 1.500659e-02 -4.769489e-02
3.890451e+09 -2.970739e-02 4.021779e-02 -9.273987e-01 -7.329881e-02 -9.273987e-01 -7.329881e-02 -2.970739e-02 4.021779e-02
3.981072e+09 3.923222e-02 -3.099730e-02 8.548418e-01 -3.650075e-01 8.548418e-01 -3.650075e-01 3.923222e-02 -3.099730e-02
4.073803e+09 -4.458429e-02 2.263274e-02 -1.391636e-02 9.286122e-01 -1.391636e-02 9.286122e-01 -4.458429e-02 2.263274e-02
4.168694e+09 4.714856e-02 -1.664372e-02 -8.986297e-01 2.312867e-01 -8.986297e-01 2.312867e-01 4.714856e-02 -1.664372e-02
4.265795e+09 -4.806519e-02 1.377453e-02 -8.707110e-01 -3.184195e-01 -8.707110e-01 -3.184195e-01 -4.806519e-02 1.377453e-02
